time,Vref,Vt,Vfd,Id,Iq,Vd,Vq,P,Q,Pm,omega,delta
0.0,1.01,1.0,1.0,0.0,0.0,0.0,1.0,0.0,0.0,0.0,1.0,0.0
0.01,1.01,1.0,1.0,0.0,0.0,0.0,1.0,0.0,0.0,0.0,1.0,0.0
0.02,1.01,1.0,1.0,0.0,0.0,0.0,1.0,0.0,0.0,0.0,1.0,0.0
0.03,1.01,1.0,1.0,0.0,0.0,0.0,1.0,0.0,0.0,0.0,1.0,0.0
0.04,1.01,1.0,1.0,0.0,0.0,0.0,1.0,0.0,0.0,0.0,1.0,0.0
0.05,1.01,1.0,1.0,0.0,0.0,0.0,1.0,0.0,0.0,0.0,1.0,0.0
0.06,1.01,1.0,1.0,0.0,0.0,0.0,1.0,0.0,0.0,0.0,1.0,0.0
0.07,1.01,1.0,1.0,0.0,0.0,0.0,1.0,0.0,0.0,0.0,1.0,0.0
0.08,1.01,1.0,1.0,0.0,0.0,0.0,1.0,0.0,0.0,0.0,1.0,0.0
0.09,1.01,1.0,1.0,0.0,0.0,0.0,1.0,0.0,0.0,0.0,1.0,0.0
0.1,1.01,1.0,1.0,0.0,0.0,0.0,1.0,0.0,0.0,0.0,1.0,0.0
0.11,1.01,1.0,1.0,0.0,0.0,0.0,1.0,0.0,0.0,0.0,1.0,0.0
0.12,1.01,1.0,1.0,0.0,0.0,0.0,1.0,0.0,0.0,0.0,1.0,0.0
0.13,1.01,1.0,1.0,0.0,0.0,0.0,1.0,0.0,0.0,0.0,1.0,0.0
0.14,1.01,1.0,1.0,0.0,0.0,0.0,1.0,0.0,0.0,0.0,1.0,0.0
0.15,1.01,1.0,1.0,0.0,0.0,0.0,1.0,0.0,0.0,0.0,1.0,0.0
0.16,1.01,1.0,1.0,0.0,0.0,0.0,1.0,0.0,0.0,0.0,1.0,0.0
0.17,1.01,1.0,1.0,0.0,0.0,0.0,1.0,0.0,0.0,0.0,1.0,0.0
0.18,1.01,1.0,1.0,0.0,0.0,0.0,1.0,0.0,0.0,0.0,1.0,0.0
0.19,1.01,1.0,1.0,0.0,0.0,0.0,1.0,0.0,0.0,0.0,1.0,0.0
0.2,1.01,1.0,1.0,0.0,0.0,0.0,1.0,0.0,0.0,0.0,1.0,0.0
0.21,1.01,1.0,1.0,0.0,0.0,0.0,1.0,0.0,0.0,0.0,1.0,0.0
0.22,1.01,1.0,1.0,0.0,0.0,0.0,1.0,0.0,0.0,0.0,1.0,0.0
0.23,1.01,1.0,1.0,0.0,0.0,0.0,1.0,0.0,0.0,0.0,1.0,0.0
0.24,1.01,1.0,1.0,0.0,0.0,0.0,1.0,0.0,0.0,0.0,1.0,0.0
0.25,1.01,1.0,1.0,0.0,0.0,0.0,1.0,0.0,0.0,0.0,1.0,0.0
0.26,1.01,1.0,1.0,0.0,0.0,0.0,1.0,0.0,0.0,0.0,1.0,0.0
0.27,1.01,1.0,1.0,0.0,0.0,0.0,1.0,0.0,0.0,0.0,1.0,0.0
0.28,1.01,1.0,1.0,0.0,0.0,0.0,1.0,0.0,0.0,0.0,1.0,0.0
0.29,1.01,1.0,1.0,0.0,0.0,0.0,1.0,0.0,0.0,0.0,1.0,0.0
0.3,1.01,1.0,1.0,0.0,0.0,0.0,1.0,0.0,0.0,0.0,1.0,0.0
0.31,1.01,1.0,1.0,0.0,0.0,0.0,1.0,0.0,0.0,0.0,1.0,0.0
0.32,1.01,1.0,1.0,0.0,0.0,0.0,1.0,0.0,0.0,0.0,1.0,0.0
0.33,1.01,1.0,1.0,0.0,0.0,0.0,1.0,0.0,0.0,0.0,1.0,0.0
0.34,1.01,1.0,1.0,0.0,0.0,0.0,1.0,0.0,0.0,0.0,1.0,0.0
0.35000000000000003,1.01,1.0,1.0,0.0,0.0,0.0,1.0,0.0,0.0,0.0,1.0,0.0
0.36,1.01,1.0,1.0,0.0,0.0,0.0,1.0,0.0,0.0,0.0,1.0,0.0
0.37,1.01,1.0,1.0,0.0,0.0,0.0,1.0,0.0,0.0,0.0,1.0,0.0
0.38,1.01,1.0,1.0,0.0,0.0,0.0,1.0,0.0,0.0,0.0,1.0,0.0
0.39,1.01,1.0,1.0,0.0,0.0,0.0,1.0,0.0,0.0,0.0,1.0,0.0
0.4,1.01,1.0,1.0,0.0,0.0,0.0,1.0,0.0,0.0,0.0,1.0,0.0
0.41000000000000003,1.01,1.0,1.0,0.0,0.0,0.0,1.0,0.0,0.0,0.0,1.0,0.0
0.42,1.01,1.0,1.0,0.0,0.0,0.0,1.0,0.0,0.0,0.0,1.0,0.0
0.43,1.01,1.0,1.0,0.0,0.0,0.0,1.0,0.0,0.0,0.0,1.0,0.0
0.44,1.01,1.0,1.0,0.0,0.0,0.0,1.0,0.0,0.0,0.0,1.0,0.0
0.45,1.01,1.0,1.0,0.0,0.0,0.0,1.0,0.0,0.0,0.0,1.0,0.0
0.46,1.01,1.0,1.0,0.0,0.0,0.0,1.0,0.0,0.0,0.0,1.0,0.0
0.47000000000000003,1.01,1.0,1.0,0.0,0.0,0.0,1.0,0.0,0.0,0.0,1.0,0.0
0.48,1.01,1.0,1.0,0.0,0.0,0.0,1.0,0.0,0.0,0.0,1.0,0.0
0.49,1.01,1.0,1.0,0.0,0.0,0.0,1.0,0.0,0.0,0.0,1.0,0.0
0.5,1.01,1.0,1.0,0.0,0.0,0.0,1.0,0.0,0.0,0.0,1.0,0.0
0.51,1.01,1.0,1.0,0.0,0.0,0.0,1.0,0.0,0.0,0.0,1.0,0.0
0.52,1.01,1.0,1.0,0.0,0.0,0.0,1.0,0.0,0.0,0.0,1.0,0.0
0.53,1.01,1.0,1.0,0.0,0.0,0.0,1.0,0.0,0.0,0.0,1.0,0.0
0.54,1.01,1.0,1.0,0.0,0.0,0.0,1.0,0.0,0.0,0.0,1.0,0.0
0.55,1.01,1.0,1.0,0.0,0.0,0.0,1.0,0.0,0.0,0.0,1.0,0.0
0.56,1.01,1.0,1.0,0.0,0.0,0.0,1.0,0.0,0.0,0.0,1.0,0.0
0.5700000000000001,1.01,1.0,1.0,0.0,0.0,0.0,1.0,0.0,0.0,0.0,1.0,0.0
0.58,1.01,1.0,1.0,0.0,0.0,0.0,1.0,0.0,0.0,0.0,1.0,0.0
0.59,1.01,1.0,1.0,0.0,0.0,0.0,1.0,0.0,0.0,0.0,1.0,0.0
0.6,1.01,1.0,1.0,0.0,0.0,0.0,1.0,0.0,0.0,0.0,1.0,0.0
0.61,1.01,1.0,1.0,0.0,0.0,0.0,1.0,0.0,0.0,0.0,1.0,0.0
0.62,1.01,1.0,1.0,0.0,0.0,0.0,1.0,0.0,0.0,0.0,1.0,0.0
0.63,1.01,1.0,1.0,0.0,0.0,0.0,1.0,0.0,0.0,0.0,1.0,0.0
0.64,1.01,1.0,1.0,0.0,0.0,0.0,1.0,0.0,0.0,0.0,1.0,0.0
0.65,1.01,1.0,1.0,0.0,0.0,0.0,1.0,0.0,0.0,0.0,1.0,0.0
0.66,1.01,1.0,1.0,0.0,0.0,0.0,1.0,0.0,0.0,0.0,1.0,0.0
0.67,1.01,1.0,1.0,0.0,0.0,0.0,1.0,0.0,0.0,0.0,1.0,0.0
0.68,1.01,1.0,1.0,0.0,0.0,0.0,1.0,0.0,0.0,0.0,1.0,0.0
0.6900000000000001,1.01,1.0,1.0,0.0,0.0,0.0,1.0,0.0,0.0,0.0,1.0,0.0
0.7000000000000001,1.01,1.0,1.0,0.0,0.0,0.0,1.0,0.0,0.0,0.0,1.0,0.0
0.71,1.01,1.0,1.0,0.0,0.0,0.0,1.0,0.0,0.0,0.0,1.0,0.0
0.72,1.01,1.0,1.0,0.0,0.0,0.0,1.0,0.0,0.0,0.0,1.0,0.0
0.73,1.01,1.0,1.0,0.0,0.0,0.0,1.0,0.0,0.0,0.0,1.0,0.0
0.74,1.01,1.0,1.0,0.0,0.0,0.0,1.0,0.0,0.0,0.0,1.0,0.0
0.75,1.01,1.0,1.0,0.0,0.0,0.0,1.0,0.0,0.0,0.0,1.0,0.0
0.76,1.01,1.0,1.0,0.0,0.0,0.0,1.0,0.0,0.0,0.0,1.0,0.0
0.77,1.01,1.0,1.0,0.0,0.0,0.0,1.0,0.0,0.0,0.0,1.0,0.0
0.78,1.01,1.0,1.0,0.0,0.0,0.0,1.0,0.0,0.0,0.0,1.0,0.0
0.79,1.01,1.0,1.0,0.0,0.0,0.0,1.0,0.0,0.0,0.0,1.0,0.0
0.8,1.01,1.0,1.0,0.0,0.0,0.0,1.0,0.0,0.0,0.0,1.0,0.0
0.81,1.01,1.0,1.0,0.0,0.0,0.0,1.0,0.0,0.0,0.0,1.0,0.0
0.8200000000000001,1.01,1.0,1.0,0.0,0.0,0.0,1.0,0.0,0.0,0.0,1.0,0.0
0.8300000000000001,1.01,1.0,1.0,0.0,0.0,0.0,1.0,0.0,0.0,0.0,1.0,0.0
0.84,1.01,1.0,1.0,0.0,0.0,0.0,1.0,0.0,0.0,0.0,1.0,0.0
0.85,1.01,1.0,1.0,0.0,0.0,0.0,1.0,0.0,0.0,0.0,1.0,0.0
0.86,1.01,1.0,1.0,0.0,0.0,0.0,1.0,0.0,0.0,0.0,1.0,0.0
0.87,1.01,1.0,1.0,0.0,0.0,0.0,1.0,0.0,0.0,0.0,1.0,0.0
0.88,1.01,1.0,1.0,0.0,0.0,0.0,1.0,0.0,0.0,0.0,1.0,0.0
0.89,1.01,1.0,1.0,0.0,0.0,0.0,1.0,0.0,0.0,0.0,1.0,0.0
0.9,1.01,1.0,1.0,0.0,0.0,0.0,1.0,0.0,0.0,0.0,1.0,0.0
0.91,1.01,1.0,1.0,0.0,0.0,0.0,1.0,0.0,0.0,0.0,1.0,0.0
0.92,1.01,1.0,1.0,0.0,0.0,0.0,1.0,0.0,0.0,0.0,1.0,0.0
0.93,1.01,1.0,1.0,0.0,0.0,0.0,1.0,0.0,0.0,0.0,1.0,0.0
0.9400000000000001,1.01,1.0,1.0,0.0,0.0,0.0,1.0,0.0,0.0,0.0,1.0,0.0
0.9500000000000001,1.01,1.0,1.0,0.0,0.0,0.0,1.0,0.0,0.0,0.0,1.0,0.0
0.96,1.01,1.0,1.0,0.0,0.0,0.0,1.0,0.0,0.0,0.0,1.0,0.0
0.97,1.01,1.0,1.0,0.0,0.0,0.0,1.0,0.0,0.0,0.0,1.0,0.0
0.98,1.01,1.0,1.0,0.0,0.0,0.0,1.0,0.0,0.0,0.0,1.0,0.0
0.99,1.01,1.0,1.0,0.0,0.0,0.0,1.0,0.0,0.0,0.0,1.0,0.0
1.0,1.01,1.0,1.0,0.0,0.0,0.0,1.0,0.0,0.0,0.0,1.0,0.0
1.01,1.06,1.0,1.0,0.0,0.0,0.0,1.0,0.0,0.0,0.0,1.0,0.0
1.02,1.06,1.0,1.025125,0.0,0.0,0.0,1.0,0.0,0.0,0.0,1.0,0.0
1.03,1.06,1.0000012079390572,1.0491061875,0.0,0.0,0.0,1.0,0.0,0.0,0.0,1.0,0.0
1.04,1.06,1.0000046230155695,1.07200069690625,0.0,0.0,0.0,1.0,0.0,0.0,0.0,1.0,0.0
1.05,1.06,1.0000110649450744,1.0938621989434207,0.0,0.0,0.0,1.0,0.0,0.0,0.0,1.0,0.0
1.06,1.06,1.000021199337557,1.1147411760144965,0.0,0.0,0.0,1.0,0.0,0.0,0.0,1.0,0.0
1.07,1.06,1.0000355597000161,1.1346851695613942,0.0,0.0,0.0,1.0,0.0,0.0,0.0,1.0,0.0
1.08,1.06,1.000054566504508,1.1537390027101881,0.0,0.0,0.0,1.0,0.0,0.0,0.0,1.0,0.0
1.09,1.06,1.000078543704824,1.1719449810752494,0.0,0.0,0.0,1.0,0.0,0.0,0.0,1.0,0.0
1.1,1.06,1.0001077330352879,1.1893430742392999,0.0,0.0,0.0,1.0,0.0,0.0,0.0,1.0,0.0
1.11,1.06,1.0001423063818955,1.205971080114619,0.0,0.0,0.0,1.0,0.0,0.0,0.0,1.0,0.0
1.12,1.06,1.000182376478374,1.2218647741185584,0.0,0.0,0.0,1.0,0.0,0.0,0.0,1.0,0.0
1.1300000000000001,1.06,1.000228006146941,1.2370580448590374,0.0,0.0,0.0,1.0,0.0,0.0,0.0,1.0,0.0
1.1400000000000001,1.06,1.0002792162750107,1.251583017818334,0.0,0.0,0.0,1.0,0.0,0.0,0.0,1.0,0.0
1.1500000000000001,1.06,1.0003359926942381,1.2654701683424137,0.0,0.0,0.0,1.0,0.0,0.0,0.0,1.0,0.0
1.16,1.06,1.0003982921066645,1.2787484250848598,0.0,0.0,0.0,1.0,0.0,0.0,0.0,1.0,0.0
1.17,1.06,1.0004660471838942,1.2914452649162542,0.0,0.0,0.0,1.0,0.0,0.0,0.0,1.0,0.0
1.18,1.06,1.000539170948838,1.3035868001890565,0.0,0.0,0.0,1.0,0.0,0.0,0.0,1.0,0.0
1.19,1.06,1.0006175605352916,1.3151978591423847,0.0,0.0,0.0,1.0,0.0,0.0,0.0,1.0,0.0
1.2,1.06,1.0007011004081927,1.3263020601387212,0.0,0.0,0.0,1.0,0.0,0.0,0.0,1.0,0.0
1.21,1.06,1.0007896651165946,1.3369218803436989,0.0,0.0,0.0,1.0,0.0,0.0,0.0,1.0,0.0
1.22,1.06,1.000883121641976,1.3470787193893508,0.0,0.0,0.0,1.0,0.0,0.0,0.0,1.0,0.0
1.23,1.06,1.0009813313963256,1.3567929584991965,0.0,0.0,0.0,1.0,0.0,0.0,0.0,1.0,0.0
1.24,1.06,1.0010841519173073,1.3660840154992142,0.0,0.0,0.0,1.0,0.0,0.0,0.0,1.0,0.0
1.25,1.06,1.0011914383016103,1.374970396091103,0.0,0.0,0.0,1.0,0.0,0.0,0.0,1.0,0.0
1.26,1.06,1.0013030444121935,1.38346974172243,0.0,0.0,0.0,1.0,0.0,0.0,0.0,1.0,0.0
1.27,1.06,1.0014188238904354,1.3915988743515673,0.0,0.0,0.0,1.0,0.0,0.0,0.0,1.0,0.0
1.28,1.06,1.0015386310001146,1.3993738383730676,0.0,0.0,0.0,1.0,0.0,0.0,0.0,1.0,0.0
1.29,1.06,1.0016623213265965,1.4068099399407765,0.0,0.0,0.0,1.0,0.0,0.0,0.0,1.0,0.0
1.3,1.06,1.0017897523515,1.413921783901017,0.0,0.0,0.0,1.0,0.0,0.0,0.0,1.0,0.0
1.31,1.06,1.0019207839204423,1.4207233085262092,0.0,0.0,0.0,1.0,0.0,0.0,0.0,1.0,0.0
1.32,1.06,1.0020552786191068,1.4272278182199012,0.0,0.0,0.0,1.0,0.0,0.0,0.0,1.0,0.0
1.33,1.06,1.002193102070858,1.4334480143470765,0.0,0.0,0.0,1.0,0.0,0.0,0.0,1.0,0.0
1.34,1.06,1.0023341231673504,1.4393960243284938,0.0,0.0,0.0,1.0,0.0,0.0,0.0,1.0,0.0
1.35,1.06,1.002478214242045,1.445083429124438,0.0,0.0,0.0,1.0,0.0,0.0,0.0,1.0,0.0
1.36,1.06,1.0026252511952114,1.4505212892214145,0.0,0.0,0.0,1.0,0.0,0.0,0.0,1.0,0.0
1.37,1.06,1.0027751135778307,1.4557201692248132,0.0,0.0,0.0,1.0,0.0,0.0,0.0,1.0,0.0
1.3800000000000001,1.06,1.0029276846408062,1.4606901611512384,0.0,0.0,0.0,1.0,0.0,0.0,0.0,1.0,0.0
1.3900000000000001,1.06,1.003082851355016,1.4654409065058942,0.0,0.0,0.0,1.0,0.0,0.0,0.0,1.0,0.0
1.4000000000000001,1.06,1.0032405044069743,1.4699816172230216,0.0,0.0,0.0,1.0,0.0,0.0,0.0,1.0,0.0
1.41,1.06,1.0034005381742142,1.4743210955407786,0.0,0.0,0.0,1.0,0.0,0.0,0.0,1.0,0.0
1.42,1.06,1.0035628506839283,1.478467752876062,0.0,0.0,0.0,1.0,0.0,0.0,0.0,1.0,0.0
1.43,1.06,1.0037273435579068,1.4824296277594695,0.0,0.0,0.0,1.0,0.0,0.0,0.0,1.0,0.0
1.44,1.06,1.003893921946381,1.486214402885876,0.0,0.0,0.0,1.0,0.0,0.0,0.0,1.0,0.0
1.45,1.06,1.0040624944530057,1.489829421331821,0.0,0.0,0.0,1.0,0.0,0.0,0.0,1.0,0.0
1.46,1.06,1.004232973052895,1.4932817019870708,0.0,0.0,0.0,1.0,0.0,0.0,0.0,1.0,0.0
1.47,1.06,1.0044052730053368,1.4965779542442519,0.0,0.0,0.0,1.0,0.0,0.0,0.0,1.0,0.0
1.48,1.06,1.004579312762576,1.4997245919873192,0.0,0.0,0.0,1.0,0.0,0.0,0.0,1.0,0.0
1.49,1.06,1.0047550138758423,1.5027277469167712,0.0,0.0,0.0,1.0,0.0,0.0,0.0,1.0,0.0
1.5,1.06,1.0049323008996203,1.5055932812469601,0.0,0.0,0.0,1.0,0.0,0.0,0.0,1.0,0.0
1.51,1.06,1.0051111012949976,1.5083267998084788,0.0,0.0,0.0,1.0,0.0,0.0,0.0,1.0,0.0
1.52,1.06,1.0052913453327972,1.5109336615864715,0.0,0.0,0.0,1.0,0.0,0.0,0.0,1.0,0.0
1.53,1.06,1.0054729659970802,1.513418990723754,0.0,0.0,0.0,1.0,0.0,0.0,0.0,1.0,0.0
1.54,1.06,1.0056558988895052,1.5157876870158327,0.0,0.0,0.0,1.0,0.0,0.0,0.0,1.0,0.0
1.55,1.06,1.0058400821349436,1.518044435923259,0.0,0.0,0.0,1.0,0.0,0.0,0.0,1.0,0.0
1.56,1.06,1.0060254562886795,1.5201937181252485,0.0,0.0,0.0,1.0,0.0,0.0,0.0,1.0,0.0
1.57,1.06,1.0062119642454541,1.522239818637083,0.0,0.0,0.0,1.0,0.0,0.0,0.0,1.0,0.0
1.58,1.06,1.0063995511505632,1.524186835512527,0.0,0.0,0.0,1.0,0.0,0.0,0.0,1.0,0.0
1.59,1.06,1.0065881643131698,1.5260386881512942,0.0,0.0,0.0,1.0,0.0,0.0,0.0,1.0,0.0
1.6,1.06,1.0067777531219522,1.5277991252304848,0.0,0.0,0.0,1.0,0.0,0.0,0.0,1.0,0.0
1.61,1.06,1.0069682689631778,1.5294717322778864,0.0,0.0,0.0,1.0,0.0,0.0,0.0,1.0,0.0
1.62,1.06,1.0071596651412607,1.5310599389040673,0.0,0.0,0.0,1.0,0.0,0.0,0.0,1.0,0.0
1.6300000000000001,1.06,1.0073518968018378,1.5325670257092985,0.0,0.0,0.0,1.0,0.0,0.0,0.0,1.0,0.0
1.6400000000000001,1.06,1.0075449208573815,1.5339961308804984,0.0,0.0,0.0,1.0,0.0,0.0,0.0,1.0,0.0
1.6500000000000001,1.06,1.0077386959153434,1.535350256492617,0.0,0.0,0.0,1.0,0.0,0.0,0.0,1.0,0.0
1.6600000000000001,1.06,1.0079331822088164,1.536632274528136,0.0,0.0,0.0,1.0,0.0,0.0,0.0,1.0,0.0
1.67,1.06,1.0081283415296867,1.5378449326276795,0.0,0.0,0.0,1.0,0.0,0.0,0.0,1.0,0.0
1.68,1.06,1.008324137164236,1.5389908595840747,0.0,0.0,0.0,1.0,0.0,0.0,0.0,1.0,0.0
1.69,1.06,1.0085205338311547,1.5400725705915965,0.0,0.0,0.0,1.0,0.0,0.0,0.0,1.0,0.0
1.7,1.06,1.0087174976219093,1.5410924722615638,0.0,0.0,0.0,1.0,0.0,0.0,0.0,1.0,0.0
1.71,1.06,1.0089149959434112,1.5420528674148957,0.0,0.0,0.0,1.0,0.0,0.0,0.0,1.0,0.0
1.72,1.06,1.0091129974629274,1.5429559596617455,0.0,0.0,0.0,1.0,0.0,0.0,0.0,1.0,0.0
1.73,1.06,1.00931147205517,1.5438038577778348,0.0,0.0,0.0,1.0,0.0,0.0,0.0,1.0,0.0
1.74,1.06,1.0095103907514995,1.5445985798866546,0.0,0.0,0.0,1.0,0.0,0.0,0.0,1.0,0.0
1.75,1.06,1.0097097256911787,1.5453420574562755,0.0,0.0,0.0,1.0,0.0,0.0,0.0,1.0,0.0
1.76,1.06,1.009909450074607,1.5460361391190895,0.0,0.0,0.0,1.0,0.0,0.0,0.0,1.0,0.0
1.77,1.06,1.0101095381184746,1.5466825943224278,0.0,0.0,0.0,1.0,0.0,0.0,0.0,1.0,0.0
1.78,1.06,1.0103099650127636,1.5472831168176187,0.0,0.0,0.0,1.0,0.0,0.0,0.0,1.0,0.0
1.79,1.06,1.0105107068795365,1.5478393279947145,0.0,0.0,0.0,1.0,0.0,0.0,0.0,1.0,0.0
1.8,1.06,1.010711740733443,1.54835278006977,0.0,0.0,0.0,1.0,0.0,0.0,0.0,1.0,0.0
1.81,1.06,1.0109130444438832,1.54882495913125,0.0,0.0,0.0,1.0,0.0,0.0,0.0,1.0,0.0
1.82,1.06,1.0111145966987656,1.5492572880518367,0.0,0.0,0.0,1.0,0.0,0.0,0.0,1.0,0.0
1.83,1.06,1.0113163769697964,1.5496511292716257,0.0,0.0,0.0,1.0,0.0,0.0,0.0,1.0,0.0
1.84,1.06,1.0115183654792432,1.550007787458426,0.0,0.0,0.0,1.0,0.0,0.0,0.0,1.0,0.0
1.85,1.06,1.0117205431681133,1.5503285120506212,0.0,0.0,0.0,1.0,0.0,0.0,0.0,1.0,0.0
1.86,1.06,1.0119228916656908,1.5506144996878024,0.0,0.0,0.0,1.0,0.0,0.0,0.0,1.0,0.0
1.87,1.06,1.012125393260379,1.5508668965341494,0.0,0.0,0.0,1.0,0.0,0.0,0.0,1.0,0.0
1.8800000000000001,1.06,1.0123280308717935,1.5510868004993108,0.0,0.0,0.0,1.0,0.0,0.0,0.0,1.0,0.0
1.8900000000000001,1.06,1.0125307880240553,1.551275263361323,0.0,0.0,0.0,1.0,0.0,0.0,0.0,1.0,0.0
1.9000000000000001,1.06,1.0127336488202363,1.5514332927959043,0.0,0.0,0.0,1.0,0.0,0.0,0.0,1.0,0.0
1.9100000000000001,1.06,1.0129365979179072,1.5515618543162644,0.0,0.0,0.0,1.0,0.0,0.0,0.0,1.0,0.0
1.92,1.06,1.0131396205057432,1.5516618731273852,0.0,0.0,0.0,1.0,0.0,0.0,0.0,1.0,0.0
1.93,1.06,1.0133427022811419,1.5517342358985564,0.0,0.0,0.0,1.0,0.0,0.0,0.0,1.0,0.0
1.94,1.06,1.013545829428813,1.5517797924577728,0.0,0.0,0.0,1.0,0.0,0.0,0.0,1.0,0.0
1.95,1.06,1.0137489886002975,1.5517993574114493,0.0,0.0,0.0,1.0,0.0,0.0,0.0,1.0,0.0
1.96,1.06,1.0139521668943752,1.551793711692746,0.0,0.0,0.0,1.0,0.0,0.0,0.0,1.0,0.0
1.97,1.06,1.014155351838327,1.5517636040416587,0.0,0.0,0.0,1.0,0.0,0.0,0.0,1.0,0.0
1.98,1.06,1.0143585313700114,1.5517097524198844,0.0,0.0,0.0,1.0,0.0,0.0,0.0,1.0,0.0
1.99,1.06,1.0145616938207227,1.551632845363337,0.0,0.0,0.0,1.0,0.0,0.0,0.0,1.0,0.0
2.0,1.06,1.0147648278987955,1.5515335432750674,0.0,0.0,0.0,1.0,0.0,0.0,0.0,1.0,0.0
2.0100000000000002,1.06,1.0149679226739268,1.5514124796612139,0.0,0.0,0.0,1.0,0.0,0.0,0.0,1.0,0.0
2.02,1.06,1.0151709675621794,1.551270262312495,0.0,0.0,0.0,1.0,0.0,0.0,0.0,1.0,0.0
2.0300000000000002,1.06,1.0153739523116432,1.5511074744336442,0.0,0.0,0.0,1.0,0.0,0.0,0.0,1.0,0.0
2.04,1.06,1.0155768669887213,1.5509246757230857,0.0,0.0,0.0,1.0,0.0,0.0,0.0,1.0,0.0
2.05,1.06,1.0157797019650157,1.5507224034050386,0.0,0.0,0.0,1.0,0.0,0.0,0.0,1.0,0.0
2.06,1.06,1.015982447904787,1.550501173216149,0.0,0.0,0.0,1.0,0.0,0.0,0.0,1.0,0.0
2.07,1.06,1.0161850957529617,1.5502614803486536,0.0,0.0,0.0,1.0,0.0,0.0,0.0,1.0,0.0
2.08,1.06,1.0163876367236653,1.5500038003519885,0.0,0.0,0.0,1.0,0.0,0.0,0.0,1.0,0.0
2.09,1.06,1.016590062289256,1.5497285899946767,0.0,0.0,0.0,1.0,0.0,0.0,0.0,1.0,0.0
2.1,1.06,1.0167923641698389,1.5494362880882393,0.0,0.0,0.0,1.0,0.0,0.0,0.0,1.0,0.0
2.11,1.06,1.0169945343232387,1.5491273162748085,0.0,0.0,0.0,1.0,0.0,0.0,0.0,1.0,0.0
2.12,1.06,1.0171965649354122,1.548802079780038,0.0,0.0,0.0,1.0,0.0,0.0,0.0,1.0,0.0
2.13,1.06,1.0173984484112792,1.5484609681328383,0.0,0.0,0.0,1.0,0.0,0.0,0.0,1.0,0.0
2.14,1.06,1.0176001773659562,1.5481043558534024,0.0,0.0,0.0,1.0,0.0,0.0,0.0,1.0,0.0
2.15,1.06,1.017801744616372,1.547732603110913,0.0,0.0,0.0,1.0,0.0,0.0,0.0,1.0,0.0
2.16,1.06,1.0180031431732528,1.5473460563522696,0.0,0.0,0.0,1.0,0.0,0.0,0.0,1.0,0.0
2.17,1.06,1.0182043662334557,1.5469450489031111,0.0,0.0,0.0,1.0,0.0,0.0,0.0,1.0,0.0
2.18,1.06,1.0184054071726396,1.5465299015423528,0.0,0.0,0.0,1.0,0.0,0.0,0.0,1.0,0.0
2.19,1.06,1.0186062595382557,1.5461009230514051,0.0,0.0,0.0,1.0,0.0,0.0,0.0,1.0,0.0
2.2,1.06,1.0188069170428453,1.5456584107391882,0.0,0.0,0.0,1.0,0.0,0.0,0.0,1.0,0.0
2.21,1.06,1.0190073735576306,1.5452026509440082,0.0,0.0,0.0,1.0,0.0,0.0,0.0,1.0,0.0
2.22,1.06,1.0192076231063865,1.5447339195133145,0.0,0.0,0.0,1.0,0.0,0.0,0.0,1.0,0.0
2.23,1.06,1.019407659859579,1.5442524822623105,0.0,0.0,0.0,1.0,0.0,0.0,0.0,1.0,0.0
2.24,1.06,1.019607478128762,1.5437585954123503,0.0,0.0,0.0,1.0,0.0,0.0,0.0,1.0,0.0
2.25,1.06,1.0198070723612176,1.5432525060100115,0.0,0.0,0.0,1.0,0.0,0.0,0.0,1.0,0.0
2.2600000000000002,1.06,1.0200064371348305,1.542734452327692,0.0,0.0,0.0,1.0,0.0,0.0,0.0,1.0,0.0
2.27,1.06,1.0202055671531882,1.5422046642465486,0.0,0.0,0.0,1.0,0.0,0.0,0.0,1.0,0.0
2.2800000000000002,1.06,1.0204044572408926,1.541663363622551,0.0,0.0,0.0,1.0,0.0,0.0,0.0,1.0,0.0
2.29,1.06,1.020603102339079,1.5411107646363975,0.0,0.0,0.0,1.0,0.0,0.0,0.0,1.0,0.0
2.3000000000000003,1.06,1.0208014975011286,1.5405470741279996,0.0,0.0,0.0,1.0,0.0,0.0,0.0,1.0,0.0
2.31,1.06,1.02099963788857,1.5399724919162192,0.0,0.0,0.0,1.0,0.0,0.0,0.0,1.0,0.0
2.32,1.06,1.0211975187671574,1.5393872111045028,0.0,0.0,0.0,1.0,0.0,0.0,0.0,1.0,0.0
2.33,1.06,1.0213951355031217,1.538791418373038,0.0,0.0,0.0,1.0,0.0,0.0,0.0,1.0,0.0
2.34,1.06,1.0215924835595842,1.538185294258023,0.0,0.0,0.0,1.0,0.0,0.0,0.0,1.0,0.0
2.35,1.06,1.0217895584931265,1.537569013418617,0.0,0.0,0.0,1.0,0.0,0.0,0.0,1.0,0.0
2.36,1.06,1.0219863559505098,1.5369427448921142,0.0,0.0,0.0,1.0,0.0,0.0,0.0,1.0,0.0
2.37,1.06,1.022182871665537,1.5363066523378606,0.0,0.0,0.0,1.0,0.0,0.0,0.0,1.0,0.0
2.38,1.06,1.022379101456052,1.5356608942704064,0.0,0.0,0.0,1.0,0.0,0.0,0.0,1.0,0.0
2.39,1.06,1.022575041221068,1.5350056242823729,0.0,0.0,0.0,1.0,0.0,0.0,0.0,1.0,0.0
2.4,1.06,1.022770686938022,1.5343409912574806,0.0,0.0,0.0,1.0,0.0,0.0,0.0,1.0,0.0
2.41,1.06,1.0229660346601475,1.5336671395741777,0.0,0.0,0.0,1.0,0.0,0.0,0.0,1.0,0.0
2.42,1.06,1.0231610805139622,1.5329842093002781,0.0,0.0,0.0,1.0,0.0,0.0,0.0,1.0,0.0
2.43,1.06,1.0233558206968634,1.5322923363790077,0.0,0.0,0.0,1.0,0.0,0.0,0.0,1.0,0.0
2.44,1.06,1.0235502514748285,1.5315916528068372,0.0,0.0,0.0,1.0,0.0,0.0,0.0,1.0,0.0
2.45,1.06,1.023744369180215,1.5308822868034586,0.0,0.0,0.0,1.0,0.0,0.0,0.0,1.0,0.0
2.46,1.06,1.0239381702096553,1.5301643629742612,0.0,0.0,0.0,1.0,0.0,0.0,0.0,1.0,0.0
2.47,1.06,1.0241316510220426,1.529438002465624,0.0,0.0,0.0,1.0,0.0,0.0,0.0,1.0,0.0
2.48,1.06,1.0243248081366036,1.5287033231133547,0.0,0.0,0.0,1.0,0.0,0.0,0.0,1.0,0.0
2.49,1.06,1.0245176381310552,1.5279604395845643,0.0,0.0,0.0,1.0,0.0,0.0,0.0,1.0,0.0
2.5,1.06,1.0247101376398393,1.5272094635132782,0.0,0.0,0.0,1.0,0.0,0.0,0.0,1.0,0.0
2.5100000000000002,1.06,1.0249023033524347,1.5264505036300489,0.0,0.0,0.0,1.0,0.0,0.0,0.0,1.0,0.0
2.52,1.06,1.0250941320117406,1.525683665885843,0.0,0.0,0.0,1.0,0.0,0.0,0.0,1.0,0.0
2.5300000000000002,1.06,1.025285620412531,1.5249090535704501,0.0,0.0,0.0,1.0,0.0,0.0,0.0,1.0,0.0
2.54,1.06,1.0254767653999735,1.5241267674256553,0.0,0.0,0.0,1.0,0.0,0.0,0.0,1.0,0.0
2.5500000000000003,1.06,1.025667563868213,1.5233369057534067,0.0,0.0,0.0,1.0,0.0,0.0,0.0,1.0,0.0
2.56,1.06,1.0258580127590156,1.5225395645192,0.0,0.0,0.0,1.0,0.0,0.0,0.0,1.0,0.0
2.57,1.06,1.0260481090604703,1.5217348374508866,0.0,0.0,0.0,1.0,0.0,0.0,0.0,1.0,0.0
2.58,1.06,1.026237849805746,1.520922816133111,0.0,0.0,0.0,1.0,0.0,0.0,0.0,1.0,0.0
2.59,1.06,1.0264272320719012,1.5201035900975683,0.0,0.0,0.0,1.0,0.0,0.0,0.0,1.0,0.0
2.6,1.06,1.0266162529787455,1.5192772469092648,0.0,0.0,0.0,1.0,0.0,0.0,0.0,1.0,0.0
2.61,1.06,1.0268049096877478,1.518443872248961,0.0,0.0,0.0,1.0,0.0,0.0,0.0,1.0,0.0
2.62,1.06,1.0269931994009922,1.5176035499919611,0.0,0.0,0.0,1.0,0.0,0.0,0.0,1.0,0.0
2.63,1.06,1.0271811193601765,1.5167563622834126,0.0,0.0,0.0,1.0,0.0,0.0,0.0,1.0,0.0
2.64,1.06,1.027368666845655,1.5159023896102712,0.0,0.0,0.0,1.0,0.0,0.0,0.0,1.0,0.0
2.65,1.06,1.0275558391755193,1.515041710870074,0.0,0.0,0.0,1.0,0.0,0.0,0.0,1.0,0.0
2.66,1.06,1.02774263370472,1.514174403436663,0.0,0.0,0.0,1.0,0.0,0.0,0.0,1.0,0.0
2.67,1.06,1.0279290478242231,1.5133005432229967,0.0,0.0,0.0,1.0,0.0,0.0,0.0,1.0,0.0
2.68,1.06,1.0281150789602034,1.5124202047411723,0.0,0.0,0.0,1.0,0.0,0.0,0.0,1.0,0.0
2.69,1.06,1.0283007245732703,1.5115334611597875,0.0,0.0,0.0,1.0,0.0,0.0,0.0,1.0,0.0
